
**** 11/20/24 22:38:28 ******* PSpice Lite (March 2016) ******* ID# 10813 ****

 ** Profile: "SCHEMATIC1-sim1"  [ C:\Users\Justin\Documents\School\2024-2025\Fall Quarter\EEC 100\OrCAD Lab Simulations\EEC-100-OrCAD


 ****     CIRCUIT DESCRIPTION


******************************************************************************




** Creating circuit file "sim1.cir" 
** WARNING: THIS AUTOMATICALLY GENERATED FILE MAY BE OVERWRITTEN BY SUBSEQUENT SIMULATIONS

*Libraries: 
* Profile Libraries :
* Local Libraries :
* From [PSPICE NETLIST] section of C:\Users\Justin\AppData\Roaming\SPB_Data\cdssetup\OrCAD_PSpice\17.2.0\PSpice.ini file:
.lib "nomd.lib" 

*Analysis directives: 
.TRAN  0 6ms 0 1u 
.OPTIONS ADVCONV
.PROBE64 V(alias(*)) I(alias(*)) W(alias(*)) D(alias(*)) NOISE(alias(*)) 
.INC "..\SCHEMATIC1.net" 



**** INCLUDING SCHEMATIC1.net ****
* source LAB 8-LAPLACE TRANSFORM ANALYSIS
V_V1         VIN 0 5v
V_V2         N00267 0  
+PULSE 0 5 0 1f 1f 3m 6m
X_S1    N00267 0 VIN N00325 SCHEMATIC1_S1 
R_R1         N00325 VOUT  470 TC=0,0 
R_R2         VOUT N00336  100 TC=0,0 
R_R3         N00345 N00336  90 TC=0,0 
C_C1         0 VOUT  1u  TC=0,0 
L_L1         0 N00345  33m  

.subckt SCHEMATIC1_S1 1 2 3 4  
S_S1         3 4 1 2 _S1
RS_S1         1 2 1G
.MODEL         _S1 VSWITCH Roff=1e6 Ron=270 Voff=0v Von=5v
.ends SCHEMATIC1_S1

**** RESUMING sim1.cir ****
.END

**** 11/20/24 22:38:28 ******* PSpice Lite (March 2016) ******* ID# 10813 ****

 ** Profile: "SCHEMATIC1-sim1"  [ C:\Users\Justin\Documents\School\2024-2025\Fall Quarter\EEC 100\OrCAD Lab Simulations\EEC-100-OrCAD


 ****     Voltage Controlled Switch MODEL PARAMETERS


******************************************************************************




               X_S1._S1        
         RON  270            
        ROFF    1.000000E+06 
         VON    5            
        VOFF    0            


**** 11/20/24 22:38:28 ******* PSpice Lite (March 2016) ******* ID# 10813 ****

 ** Profile: "SCHEMATIC1-sim1"  [ C:\Users\Justin\Documents\School\2024-2025\Fall Quarter\EEC 100\OrCAD Lab Simulations\EEC-100-OrCAD


 ****     INITIAL TRANSIENT SOLUTION       TEMPERATURE =   27.000 DEG C


******************************************************************************



 NODE   VOLTAGE     NODE   VOLTAGE     NODE   VOLTAGE     NODE   VOLTAGE


(  VIN)    5.0000  ( VOUT) 949.4E-06  (N00267)    0.0000 (N00325)     .0033     

(N00336) 449.7E-06 (N00345)    0.0000 




    VOLTAGE SOURCE CURRENTS
    NAME         CURRENT

    V_V1        -4.997E-06
    V_V2         0.000E+00

    TOTAL POWER DISSIPATION   2.50E-05  WATTS



          JOB CONCLUDED

**** 11/20/24 22:38:28 ******* PSpice Lite (March 2016) ******* ID# 10813 ****

 ** Profile: "SCHEMATIC1-sim1"  [ C:\Users\Justin\Documents\School\2024-2025\Fall Quarter\EEC 100\OrCAD Lab Simulations\EEC-100-OrCAD


 ****     JOB STATISTICS SUMMARY


******************************************************************************



  Total job time (using Solver 1)   =         .03
