
**** 10/15/24 10:28:46 ******* PSpice Lite (March 2016) ******* ID# 10813 ****

 ** Profile: "SCHEMATIC1-sim3"  [ C:\Users\jhsu2\OneDrive\Documents\UC Davis\2024-2025\Fall Quarter\EEC 100\Lab 3\Lab 3 Summing Ampli


 ****     CIRCUIT DESCRIPTION


******************************************************************************




** Creating circuit file "sim3.cir" 
** WARNING: THIS AUTOMATICALLY GENERATED FILE MAY BE OVERWRITTEN BY SUBSEQUENT SIMULATIONS

*Libraries: 
* Profile Libraries :
* Local Libraries :
* From [PSPICE NETLIST] section of C:\Users\jhsu2\AppData\Roaming\SPB_Data\cdssetup\OrCAD_PSpice\17.2.0\PSpice.ini file:
.lib "nomd.lib" 

*Analysis directives: 
.TRAN  0 20m 0 10u 
.OPTIONS ADVCONV
.PROBE64 V(alias(*)) I(alias(*)) W(alias(*)) D(alias(*)) NOISE(alias(*)) 
.INC "..\SCHEMATIC1.net" 



**** INCLUDING SCHEMATIC1.net ****
* source LAB 3 SUMMING AMPLIFIER
E_U1         VO 0 VALUE {LIMIT(V(0,N00276)*1E6,-15V,+15V)}
R_R1         N00269 N00276  21962.62 TC=0,0 
R_R2         N00335 N00276  47k TC=0,0 
R_R3         N00342 N00276  100k TC=0,0 
R_47k         N00276 VO  1k TC=0,0 
V_V1         N00269 0  
+PULSE -1 0 0 5m 5m 1f 10m
V_V4         N00342 0 5v
V_V5         N00335 0  
+PULSE 0 1 0.5m 1f 1f 1m 2m

**** RESUMING sim3.cir ****
.END

**** 10/15/24 10:28:46 ******* PSpice Lite (March 2016) ******* ID# 10813 ****

 ** Profile: "SCHEMATIC1-sim3"  [ C:\Users\jhsu2\OneDrive\Documents\UC Davis\2024-2025\Fall Quarter\EEC 100\Lab 3\Lab 3 Summing Ampli


 ****     INITIAL TRANSIENT SOLUTION       TEMPERATURE =   27.000 DEG C


******************************************************************************



 NODE   VOLTAGE     NODE   VOLTAGE     NODE   VOLTAGE     NODE   VOLTAGE


(   VO)    -.0045  (N00269)   -1.0000 (N00276) 4.468E-09 (N00335)    0.0000     

(N00342)    5.0000 




    VOLTAGE SOURCE CURRENTS
    NAME         CURRENT

    V_V1         4.553E-05
    V_V4        -5.000E-05
    V_V5         9.507E-14

    TOTAL POWER DISSIPATION   2.96E-04  WATTS



          JOB CONCLUDED

**** 10/15/24 10:28:46 ******* PSpice Lite (March 2016) ******* ID# 10813 ****

 ** Profile: "SCHEMATIC1-sim3"  [ C:\Users\jhsu2\OneDrive\Documents\UC Davis\2024-2025\Fall Quarter\EEC 100\Lab 3\Lab 3 Summing Ampli


 ****     JOB STATISTICS SUMMARY


******************************************************************************



  Total job time (using Solver 1)   =         .06
